T5FD4 000:042.196   SEGGER J-Link V9.12 Log File
T5FD4 000:043.072   DLL Compiled: Jan 21 2026 12:03:31
T5FD4 000:043.116   Logging started @ 2026-08-17 09:09
T5FD4 000:043.156   Process: C:\Users\AndreEmanuel\AppData\Local\Keil_v5\UV4\UV4.exe
T5FD4 000:043.971 - 43.201ms 
T5FD4 000:044.209 JLINK_SetWarnOutHandler(...)
T5FD4 000:044.342 - 0.307ms 
T5FD4 000:044.429 JLINK_OpenEx(...)
T5FD4 000:064.539   Firmware: J-Link Lite-XMC4200 Rev.1 compiled Jul  8 2025 10:16:16
T5FD4 000:067.751   Firmware: J-Link Lite-XMC4200 Rev.1 compiled Jul  8 2025 10:16:16
T5FD4 000:088.347   Hardware: V1.00
T5FD4 000:088.518   S/N: 591114966
T5FD4 000:088.624   OEM: SEGGER
T5FD4 000:088.727   Feature(s): None
T5FD4 000:090.960   Bootloader: 2012 Oct 05
T5FD4 000:092.171   USB speed mode: Full speed (12 MBit/s)
T5FD4 000:093.763   TELNET listener socket opened on port 19021
T5FD4 000:094.577   WEBSRV WEBSRV_Init(): Starting webserver thread(s)
T5FD4 000:095.495   WEBSRV Webserver running on local port 19080
T5FD4 000:095.944   Looking for J-Link GUI Server exe at: C:\Users\AndreEmanuel\AppData\Local\Keil_v5\ARM\Segger\JLinkGUIServer.exe
T5FD4 000:096.381   Looking for J-Link GUI Server exe at: C:\Program Files\SEGGER\JLink_V912\JLinkGUIServer.exe
T5FD4 000:097.247   Forking J-Link GUI Server: C:\Program Files\SEGGER\JLink_V912\JLinkGUIServer.exe
T5FD4 000:429.323   J-Link GUI Server info: "J-Link GUI server V9.12 "
T5FD4 000:463.454 - 418.637ms returns "O.K."
T5FD4 000:463.659 JLINK_GetEmuCaps()
T5FD4 000:463.752 - 0.085ms returns 0xB8EA5A33
T5FD4 000:463.848 JLINK_TIF_GetAvailable(...)
T5FD4 000:464.809 - 0.960ms 
T5FD4 000:464.930 JLINK_SetErrorOutHandler(...)
T5FD4 000:464.973 - 0.043ms 
T5FD4 000:465.710 JLINK_ExecCommand("ProjectFile = "C:\Users\AndreEmanuel\Desktop\tle5502_tle987x_integrationexample-main\JLinkSettings.ini"", ...). 
T5FD4 000:530.348   Ref file found at: C:\Users\AndreEmanuel\AppData\Local\Keil_v5\ARM\Segger\JLinkDevices.ref
T5FD4 000:530.720   REF file references invalid XML file: C:\Program Files\SEGGER\JLink_V912\JLinkDevices.xml
T5FD4 000:533.141 - 67.437ms returns 0x00
T5FD4 000:542.590 JLINK_ExecCommand("Device = TLE9872QXA40", ...). 
T5FD4 000:554.631   Device "TLE9872" selected.
T5FD4 000:556.786 - 14.077ms returns 0x00
T5FD4 000:556.869 JLINK_ExecCommand("DisableConnectionTimeout", ...). 
T5FD4 000:557.161   ERROR: Unknown command
T5FD4 000:557.270 - 0.354ms returns 0x01
T5FD4 000:557.319 JLINK_GetHardwareVersion()
T5FD4 000:557.365 - 0.040ms returns 10000
T5FD4 000:557.406 JLINK_GetDLLVersion()
T5FD4 000:557.445 - 0.039ms returns 91200
T5FD4 000:557.486 JLINK_GetOEMString(...)
T5FD4 000:557.608 JLINK_GetFirmwareString(...)
T5FD4 000:557.652 - 0.043ms 
T5FD4 000:575.250 JLINK_GetDLLVersion()
T5FD4 000:575.360 - 0.109ms returns 91200
T5FD4 000:575.404 JLINK_GetCompileDateTime()
T5FD4 000:575.443 - 0.039ms 
T5FD4 000:581.116 JLINK_GetFirmwareString(...)
T5FD4 000:581.221 - 0.105ms 
T5FD4 000:588.811 JLINK_GetHardwareVersion()
T5FD4 000:588.931 - 0.118ms returns 10000
T5FD4 000:593.231 JLINK_GetSN()
T5FD4 000:593.336 - 0.104ms returns 591114966
T5FD4 000:603.300 JLINK_GetOEMString(...)
T5FD4 000:608.101 JLINK_TIF_Select(JLINKARM_TIF_SWD)
T5FD4 000:610.069 - 1.976ms returns 0x00
T5FD4 000:610.165 JLINK_HasError()
T5FD4 000:610.226 JLINK_SetSpeed(5000)
T5FD4 000:610.583 - 0.358ms 
T5FD4 000:610.694 JLINK_GetId()
T5FD4 000:619.432   InitTarget() start
T5FD4 000:619.556    J-Link Script File: Executing InitTarget()
T5FD4 000:681.987   InitTarget() end - Took 58.0ms
T5FD4 000:689.895   Found SW-DP with ID 0x2BA01477
T5FD4 000:704.009   DPIDR: 0x2BA01477
T5FD4 000:711.535   CoreSight SoC-400 or earlier
T5FD4 000:718.560   Scanning AP map to find all available APs
T5FD4 000:725.958   AP[1]: Stopped AP scan as end of AP map has been reached
T5FD4 000:732.062   AP[0]: AHB-AP (IDR: 0x24770011, ADDR: 0x00000000)
T5FD4 000:736.171   Iterating through AP map to find AHB-AP to use
T5FD4 000:745.859   AP[0]: Core found
T5FD4 000:750.130   AP[0]: AHB-AP ROM base: 0xE00FF000
T5FD4 000:762.230   CPUID register: 0x412FC231. Implementer code: 0x41 (ARM)
T5FD4 000:767.446   Found Cortex-M3 r2p1, Little endian.
T5FD4 000:768.708   -- Max. mem block: 0x00003740
T5FD4 000:769.790   CPU_ReadMem(4 bytes @ 0xE000EDF0)
T5FD4 000:770.609   CPU_ReadMem(4 bytes @ 0xE0002000)
T5FD4 000:776.567   FPUnit: 2 code (BP) slots and 0 literal slots
T5FD4 000:776.702   CPU_ReadMem(4 bytes @ 0xE000EDFC)
T5FD4 000:777.451   CPU_WriteMem(4 bytes @ 0xE000EDFC)
T5FD4 000:778.342   CPU_ReadMem(4 bytes @ 0xE0001000)
T5FD4 000:779.113   CPU_WriteMem(4 bytes @ 0xE0001000)
T5FD4 000:779.898   CPU_ReadMem(4 bytes @ 0xE000ED88)
T5FD4 000:780.685   CPU_WriteMem(4 bytes @ 0xE000ED88)
T5FD4 000:781.485   CPU_ReadMem(4 bytes @ 0xE000ED88)
T5FD4 000:782.100   CPU_WriteMem(4 bytes @ 0xE000ED88)
T5FD4 000:791.374   CoreSight components:
T5FD4 000:799.170   ROMTbl[0] @ E00FF000
T5FD4 000:799.329   CPU_ReadMem(64 bytes @ 0xE00FF000)
T5FD4 000:800.656   CPU_ReadMem(32 bytes @ 0xE000EFE0)
T5FD4 000:808.295   [0][0]: E000E000 CID B105E00D PID 000BB000 SCS
T5FD4 000:808.483   CPU_ReadMem(32 bytes @ 0xE0001FE0)
T5FD4 000:816.216   [0][1]: E0001000 CID B105E00D PID 003BB002 DWT
T5FD4 000:816.427   CPU_ReadMem(32 bytes @ 0xE0002FE0)
T5FD4 000:826.447   [0][2]: E0002000 CID B105E00D PID 002BB003 FPB
T5FD4 000:827.363 - 216.667ms returns 0x2BA01477
T5FD4 000:827.455 JLINK_GetDLLVersion()
T5FD4 000:827.498 - 0.042ms returns 91200
T5FD4 000:827.545 JLINK_CORE_GetFound()
T5FD4 000:827.587 - 0.041ms returns 0x30000FF
T5FD4 000:827.641 JLINK_GetDebugInfo(0x100 = JLINKARM_ROM_TABLE_ADDR_INDEX)
T5FD4 000:827.684   Value=0xE00FF000
T5FD4 000:827.743 - 0.103ms returns 0
T5FD4 000:833.333 JLINK_GetDebugInfo(0x100 = JLINKARM_ROM_TABLE_ADDR_INDEX)
T5FD4 000:833.514   Value=0xE00FF000
T5FD4 000:833.623 - 0.291ms returns 0
T5FD4 000:833.705 JLINK_GetDebugInfo(0x101 = JLINKARM_DEBUG_INFO_ETM_ADDR_INDEX)
T5FD4 000:833.778   Value=0x00000000
T5FD4 000:833.888 - 0.183ms returns 0
T5FD4 000:833.980 JLINK_ReadMemEx(0xE0041FF0, 0x10 Bytes, Flags = 0x02000004)
T5FD4 000:834.112   CPU_ReadMem(16 bytes @ 0xE0041FF0)
T5FD4 000:835.267   Data:  00 00 00 00 00 00 00 00 00 00 00 00 00 00 00 00
T5FD4 000:835.380 - 1.399ms returns 16 (0x10)
T5FD4 000:835.431 JLINK_GetDebugInfo(0x102 = JLINKARM_DEBUG_INFO_MTB_ADDR_INDEX)
T5FD4 000:835.478   Value=0x00000000
T5FD4 000:835.542 - 0.112ms returns 0
T5FD4 000:835.590 JLINK_GetDebugInfo(0x103 = JLINKARM_DEBUG_INFO_TPIU_ADDR_INDEX)
T5FD4 000:835.634   Value=0x00000000
T5FD4 000:835.820 - 0.230ms returns 0
T5FD4 000:835.866 JLINK_GetDebugInfo(0x104 = JLINKARM_DEBUG_INFO_ITM_ADDR_INDEX)
T5FD4 000:835.906   Value=0xE0000000
T5FD4 000:836.108 - 0.240ms returns 0
T5FD4 000:836.196 JLINK_GetDebugInfo(0x105 = JLINKARM_DEBUG_INFO_DWT_ADDR_INDEX)
T5FD4 000:836.275   Value=0xE0001000
T5FD4 000:836.386 - 0.191ms returns 0
T5FD4 000:836.470 JLINK_GetDebugInfo(0x106 = JLINKARM_DEBUG_INFO_FPB_ADDR_INDEX)
T5FD4 000:836.541   Value=0xE0002000
T5FD4 000:836.648 - 0.179ms returns 0
T5FD4 000:836.726 JLINK_GetDebugInfo(0x107 = JLINKARM_DEBUG_INFO_NVIC_ADDR_INDEX)
T5FD4 000:836.799   Value=0xE000E000
T5FD4 000:836.909 - 0.183ms returns 0
T5FD4 000:837.017 JLINK_GetDebugInfo(0x10C = JLINKARM_DEBUG_INFO_DBG_ADDR_INDEX)
T5FD4 000:837.061   Value=0xE000EDF0
T5FD4 000:837.200 - 0.184ms returns 0
T5FD4 000:837.250 JLINK_GetDebugInfo(0x01 = Unknown)
T5FD4 000:837.383   Value=0x00000000
T5FD4 000:837.502 - 0.252ms returns 0
T5FD4 000:837.566 JLINK_ReadMemU32(0xE000ED00, 0x1 Items)
T5FD4 000:837.636   CPU_ReadMem(4 bytes @ 0xE000ED00)
T5FD4 000:838.659   Data:  31 C2 2F 41
T5FD4 000:838.779   Debug reg: CPUID
T5FD4 000:838.859 - 1.293ms returns 1 (0x1)
T5FD4 000:838.913 JLINK_GetDebugInfo(0x10F = JLINKARM_DEBUG_INFO_HAS_CORTEX_M_SECURITY_EXT_INDEX)
T5FD4 000:838.954   Value=0x00000000
T5FD4 000:839.013 - 0.101ms returns 0
T5FD4 000:839.056 JLINK_HasError()
T5FD4 000:839.120 JLINK_SetResetType(JLINKARM_CM3_RESET_TYPE_NORMAL)
T5FD4 000:839.164 - 0.044ms returns JLINKARM_CM3_RESET_TYPE_NORMAL
T5FD4 000:839.213 JLINK_Reset()
T5FD4 000:846.900   ResetTarget() start
T5FD4 000:847.108    J-Link Script File: Executing ResetTarget()
T5FD4 000:851.769   CPU_ReadMem(64 bytes @ 0x11000000)
T5FD4 000:853.224    -- Updating C cache (64 bytes @ 0x11000000)
T5FD4 000:853.358    -- Read from C cache (4 bytes @ 0x11000004)
T5FD4 000:853.458   CPU_WriteMem(4 bytes @ 0xE0002000)
T5FD4 000:854.315   CPU_ReadMem(4 bytes @ 0xE0002008)
T5FD4 000:855.282   CPU_WriteMem(4 bytes @ 0xE0002008)
T5FD4 000:856.126   CPU_WriteMem(4 bytes @ 0xE000ED0C)
T5FD4 000:959.433   CPU_WriteMem(4 bytes @ 0xE0002008)
T5FD4 000:966.604   ResetTarget() end - Took 113ms
T5FD4 000:973.521   Device specific reset executed.
T5FD4 000:978.497   CPU_WriteMem(4 bytes @ 0xE0002000)
T5FD4 000:979.583   CPU_ReadMem(4 bytes @ 0xE000EDFC)
T5FD4 000:980.718   CPU_ReadMem(4 bytes @ 0xE0001000)
T5FD4 000:981.979 - 142.764ms 
T5FD4 000:982.268 JLINK_Halt()
T5FD4 000:982.353 - 0.083ms returns 0x00
T5FD4 000:982.399 JLINK_ReadMemU32(0xE000EDF0, 0x1 Items)
T5FD4 000:982.452   CPU_ReadMem(4 bytes @ 0xE000EDF0)
T5FD4 000:983.163   Data:  03 00 03 00
T5FD4 000:983.277   Debug reg: DHCSR
T5FD4 000:983.337 - 0.938ms returns 1 (0x1)
T5FD4 000:983.383 JLINK_WriteU32(0xE000EDF0, 0xA05F0003)
T5FD4 000:983.423   Debug reg: DHCSR
T5FD4 000:993.464   CPU_WriteMem(4 bytes @ 0xE000EDF0)
T5FD4 000:994.657 - 11.272ms returns 0 (0x00000000)
T5FD4 000:994.873 JLINK_WriteU32(0xE000EDFC, 0x01000000)
T5FD4 000:995.012   Debug reg: DEMCR
T5FD4 000:995.204   CPU_WriteMem(4 bytes @ 0xE000EDFC)
T5FD4 000:996.318 - 1.444ms returns 0 (0x00000000)
T5FD4 001:031.710 JLINK_GetHWStatus(...)
T5FD4 001:032.555 - 0.853ms returns 0
T5FD4 001:054.580 JLINK_GetNumBPUnits(Type = 0xFFFFFF00)
T5FD4 001:054.690 - 0.110ms returns 0x02
T5FD4 001:054.735 JLINK_GetNumBPUnits(Type = 0xF0)
T5FD4 001:054.778 - 0.043ms returns 0x2000
T5FD4 001:054.822 JLINK_GetNumWPUnits()
T5FD4 001:054.865 - 0.042ms returns 1
T5FD4 001:080.451 JLINK_GetSpeed()
T5FD4 001:080.582 - 0.130ms returns 3000
T5FD4 001:091.447 JLINK_ReadMemU32(0xE000E004, 0x1 Items)
T5FD4 001:091.603   CPU_ReadMem(4 bytes @ 0xE000E004)
T5FD4 001:092.521   Data:  00 00 00 00
T5FD4 001:092.738 - 1.290ms returns 1 (0x1)
T5FD4 001:092.799 JLINK_ReadMemU32(0xE000E004, 0x1 Items)
T5FD4 001:092.866   CPU_ReadMem(4 bytes @ 0xE000E004)
T5FD4 001:093.661   Data:  00 00 00 00
T5FD4 001:093.782 - 0.983ms returns 1 (0x1)
T5FD4 001:093.832 JLINK_WriteMemEx(0xE0001000, 0x0000001C Bytes, Flags = 0x02000004)
T5FD4 001:093.874   Data:  01 00 00 00 00 00 00 00 00 00 00 00 00 00 00 00 ...
T5FD4 001:093.949   CPU_WriteMem(28 bytes @ 0xE0001000)
T5FD4 001:094.866 - 1.035ms returns 0x1C
T5FD4 001:094.949 JLINK_Halt()
T5FD4 001:094.992 - 0.043ms returns 0x00
T5FD4 001:095.034 JLINK_IsHalted()
T5FD4 001:095.075 - 0.041ms returns TRUE
T5FD4 001:108.888 JLINK_WriteMem(0x18000018, 0xD8 Bytes, ...)
T5FD4 001:108.966   Data:  00 BE 0A E0 0D 78 2D 06 68 40 08 24 40 00 00 D3 ...
T5FD4 001:109.602   CPU_WriteMem(216 bytes @ 0x18000018)
T5FD4 001:112.038 - 3.149ms returns 0xD8
T5FD4 001:112.251 JLINK_HasError()
T5FD4 001:112.305 JLINK_WriteReg(R0, 0x11000000)
T5FD4 001:112.352 - 0.047ms returns 0
T5FD4 001:112.396 JLINK_WriteReg(R1, 0x00B71B00)
T5FD4 001:112.439 - 0.042ms returns 0
T5FD4 001:112.481 JLINK_WriteReg(R2, 0x00000001)
T5FD4 001:112.521 - 0.040ms returns 0
T5FD4 001:112.565 JLINK_WriteReg(R3, 0x00000000)
T5FD4 001:112.605 - 0.040ms returns 0
T5FD4 001:112.650 JLINK_WriteReg(R4, 0x00000000)
T5FD4 001:112.690 - 0.040ms returns 0
T5FD4 001:112.733 JLINK_WriteReg(R5, 0x00000000)
T5FD4 001:112.773 - 0.040ms returns 0
T5FD4 001:112.815 JLINK_WriteReg(R6, 0x00000000)
T5FD4 001:112.855 - 0.040ms returns 0
T5FD4 001:112.897 JLINK_WriteReg(R7, 0x00000000)
T5FD4 001:112.937 - 0.040ms returns 0
T5FD4 001:113.325 JLINK_WriteReg(R8, 0x00000000)
T5FD4 001:113.419 - 0.355ms returns 0
T5FD4 001:113.467 JLINK_WriteReg(R9, 0x180000CC)
T5FD4 001:113.650 - 0.182ms returns 0
T5FD4 001:113.708 JLINK_WriteReg(R10, 0x00000000)
T5FD4 001:113.764 - 0.056ms returns 0
T5FD4 001:113.821 JLINK_WriteReg(R11, 0x00000000)
T5FD4 001:113.863 - 0.041ms returns 0
T5FD4 001:113.923 JLINK_WriteReg(R12, 0x00000000)
T5FD4 001:113.974 - 0.051ms returns 0
T5FD4 001:114.019 JLINK_WriteReg(R13 (SP), 0x18001018)
T5FD4 001:114.063 - 0.044ms returns 0
T5FD4 001:114.106 JLINK_WriteReg(R14, 0x18000019)
T5FD4 001:114.148 - 0.041ms returns 0
T5FD4 001:114.198 JLINK_WriteReg(R15 (PC), 0x18000038)
T5FD4 001:114.240 - 0.048ms returns 0
T5FD4 001:114.283 JLINK_WriteReg(XPSR, 0x01000000)
T5FD4 001:114.325 - 0.042ms returns 0
T5FD4 001:114.368 JLINK_WriteReg(MSP, 0x18001018)
T5FD4 001:114.475 - 0.106ms returns 0
T5FD4 001:114.598 JLINK_WriteReg(PSP, 0x18001018)
T5FD4 001:114.640 - 0.041ms returns 0
T5FD4 001:114.684 JLINK_WriteReg(CFBP, 0x00000000)
T5FD4 001:114.724 - 0.040ms returns 0
T5FD4 001:114.769 JLINK_SetBPEx(Addr = 0x18000018, Type = 0xFFFFFFF2)
T5FD4 001:114.814 - 0.045ms returns 0x00000001
T5FD4 001:114.857 JLINK_Go()
T5FD4 001:114.910   CPU_WriteMem(4 bytes @ 0xE0002000)
T5FD4 001:115.841   CPU_ReadMem(4 bytes @ 0xE0001000)
T5FD4 001:116.567   CPU_WriteMem(4 bytes @ 0xE0002008)
T5FD4 001:116.690   CPU_WriteMem(4 bytes @ 0xE000200C)
T5FD4 001:117.668   CPU_WriteMem(4 bytes @ 0xE0001004)
T5FD4 001:128.096   Memory map 'after startup completion point' is active
T5FD4 001:128.246 - 13.388ms 
T5FD4 001:128.299 JLINK_IsHalted()
T5FD4 001:132.552 - 4.252ms returns TRUE
T5FD4 001:132.681 JLINK_ReadReg(R15 (PC))
T5FD4 001:132.725 - 0.044ms returns 0x18000018
T5FD4 001:132.767 JLINK_ClrBPEx(BPHandle = 0x00000001)
T5FD4 001:132.809 - 0.041ms returns 0x00
T5FD4 001:132.852 JLINK_ReadReg(R0)
T5FD4 001:132.891 - 0.039ms returns 0x00000000
T5FD4 001:137.060 JLINK_HasError()
T5FD4 001:137.174 JLINK_WriteReg(R0, 0x11000000)
T5FD4 001:137.220 - 0.046ms returns 0
T5FD4 001:137.263 JLINK_WriteReg(R1, 0x00001000)
T5FD4 001:137.302 - 0.039ms returns 0
T5FD4 001:137.350 JLINK_WriteReg(R2, 0x000000FF)
T5FD4 001:137.391 - 0.041ms returns 0
T5FD4 001:137.439 JLINK_WriteReg(R3, 0x00000000)
T5FD4 001:137.479 - 0.040ms returns 0
T5FD4 001:137.526 JLINK_WriteReg(R4, 0x00000000)
T5FD4 001:137.567 - 0.040ms returns 0
T5FD4 001:137.613 JLINK_WriteReg(R5, 0x00000000)
T5FD4 001:137.653 - 0.040ms returns 0
T5FD4 001:137.699 JLINK_WriteReg(R6, 0x00000000)
T5FD4 001:137.739 - 0.040ms returns 0
T5FD4 001:137.785 JLINK_WriteReg(R7, 0x00000000)
T5FD4 001:137.828 - 0.043ms returns 0
T5FD4 001:137.874 JLINK_WriteReg(R8, 0x00000000)
T5FD4 001:137.914 - 0.040ms returns 0
T5FD4 001:137.960 JLINK_WriteReg(R9, 0x180000CC)
T5FD4 001:138.002 - 0.042ms returns 0
T5FD4 001:138.056 JLINK_WriteReg(R10, 0x00000000)
T5FD4 001:138.097 - 0.041ms returns 0
T5FD4 001:138.144 JLINK_WriteReg(R11, 0x00000000)
T5FD4 001:138.185 - 0.040ms returns 0
T5FD4 001:138.231 JLINK_WriteReg(R12, 0x00000000)
T5FD4 001:138.271 - 0.040ms returns 0
T5FD4 001:138.318 JLINK_WriteReg(R13 (SP), 0x18001018)
T5FD4 001:138.360 - 0.042ms returns 0
T5FD4 001:138.406 JLINK_WriteReg(R14, 0x18000019)
T5FD4 001:138.447 - 0.041ms returns 0
T5FD4 001:138.495 JLINK_WriteReg(R15 (PC), 0x180000A8)
T5FD4 001:138.536 - 0.041ms returns 0
T5FD4 001:138.583 JLINK_WriteReg(XPSR, 0x01000000)
T5FD4 001:138.627 - 0.044ms returns 0
T5FD4 001:138.673 JLINK_WriteReg(MSP, 0x18001018)
T5FD4 001:138.714 - 0.040ms returns 0
T5FD4 001:138.759 JLINK_WriteReg(PSP, 0x18001018)
T5FD4 001:138.800 - 0.040ms returns 0
T5FD4 001:138.846 JLINK_WriteReg(CFBP, 0x00000000)
T5FD4 001:138.887 - 0.040ms returns 0
T5FD4 001:138.935 JLINK_SetBPEx(Addr = 0x18000018, Type = 0xFFFFFFF2)
T5FD4 001:138.979 - 0.044ms returns 0x00000002
T5FD4 001:139.025 JLINK_Go()
T5FD4 001:139.095   CPU_WriteMem(4 bytes @ 0xE0002000)
T5FD4 001:140.003   CPU_ReadMem(4 bytes @ 0xE0001000)
T5FD4 001:144.797 - 5.771ms 
T5FD4 001:145.036 JLINK_IsHalted()
T5FD4 001:149.167 - 4.127ms returns TRUE
T5FD4 001:149.331 JLINK_ReadReg(R15 (PC))
T5FD4 001:149.383 - 0.051ms returns 0x18000018
T5FD4 001:149.440 JLINK_ClrBPEx(BPHandle = 0x00000002)
T5FD4 001:149.578 - 0.138ms returns 0x00
T5FD4 001:149.632 JLINK_ReadReg(R0)
T5FD4 001:149.676 - 0.043ms returns 0x00000001
T5FD4 001:149.726 JLINK_HasError()
T5FD4 001:149.779 JLINK_WriteReg(R0, 0x11000000)
T5FD4 001:149.823 - 0.045ms returns 0
T5FD4 001:149.871 JLINK_WriteReg(R1, 0x00001000)
T5FD4 001:149.913 - 0.042ms returns 0
T5FD4 001:150.078 JLINK_WriteReg(R2, 0x000000FF)
T5FD4 001:150.234 - 0.156ms returns 0
T5FD4 001:150.468 JLINK_WriteReg(R3, 0x00000000)
T5FD4 001:150.543 - 0.075ms returns 0
T5FD4 001:150.596 JLINK_WriteReg(R4, 0x00000000)
T5FD4 001:150.648 - 0.052ms returns 0
T5FD4 001:150.701 JLINK_WriteReg(R5, 0x00000000)
T5FD4 001:150.751 - 0.050ms returns 0
T5FD4 001:150.805 JLINK_WriteReg(R6, 0x00000000)
T5FD4 001:150.854 - 0.049ms returns 0
T5FD4 001:150.903 JLINK_WriteReg(R7, 0x00000000)
T5FD4 001:150.945 - 0.042ms returns 0
T5FD4 001:150.988 JLINK_WriteReg(R8, 0x00000000)
T5FD4 001:151.029 - 0.041ms returns 0
T5FD4 001:151.070 JLINK_WriteReg(R9, 0x180000CC)
T5FD4 001:151.110 - 0.040ms returns 0
T5FD4 001:151.153 JLINK_WriteReg(R10, 0x00000000)
T5FD4 001:151.194 - 0.041ms returns 0
T5FD4 001:151.237 JLINK_WriteReg(R11, 0x00000000)
T5FD4 001:151.277 - 0.040ms returns 0
T5FD4 001:151.320 JLINK_WriteReg(R12, 0x00000000)
T5FD4 001:151.360 - 0.039ms returns 0
T5FD4 001:151.402 JLINK_WriteReg(R13 (SP), 0x18001018)
T5FD4 001:151.445 - 0.043ms returns 0
T5FD4 001:151.488 JLINK_WriteReg(R14, 0x18000019)
T5FD4 001:151.531 - 0.043ms returns 0
T5FD4 001:151.573 JLINK_WriteReg(R15 (PC), 0x18000062)
T5FD4 001:151.619 - 0.046ms returns 0
T5FD4 001:151.663 JLINK_WriteReg(XPSR, 0x01000000)
T5FD4 001:151.705 - 0.043ms returns 0
T5FD4 001:151.752 JLINK_WriteReg(MSP, 0x18001018)
T5FD4 001:151.796 - 0.043ms returns 0
T5FD4 001:151.838 JLINK_WriteReg(PSP, 0x18001018)
T5FD4 001:151.880 - 0.042ms returns 0
T5FD4 001:151.922 JLINK_WriteReg(CFBP, 0x00000000)
T5FD4 001:151.965 - 0.042ms returns 0
T5FD4 001:152.010 JLINK_SetBPEx(Addr = 0x18000018, Type = 0xFFFFFFF2)
T5FD4 001:152.056 - 0.047ms returns 0x00000003
T5FD4 001:152.099 JLINK_Go()
T5FD4 001:152.155   CPU_WriteMem(4 bytes @ 0xE0002000)
T5FD4 001:153.100   CPU_ReadMem(4 bytes @ 0xE0001000)
T5FD4 001:157.638 - 5.537ms 
T5FD4 001:157.743 JLINK_IsHalted()
T5FD4 001:158.317 - 0.573ms returns FALSE
T5FD4 001:158.370 JLINK_HasError()
T5FD4 001:192.709 JLINK_IsHalted()
T5FD4 001:197.009 - 4.300ms returns TRUE
T5FD4 001:197.120 JLINK_ReadReg(R15 (PC))
T5FD4 001:197.164 - 0.044ms returns 0x18000018
T5FD4 001:197.273 JLINK_ClrBPEx(BPHandle = 0x00000003)
T5FD4 001:197.314 - 0.041ms returns 0x00
T5FD4 001:197.355 JLINK_ReadReg(R0)
T5FD4 001:197.396 - 0.040ms returns 0x00000000
T5FD4 001:198.546 JLINK_HasError()
T5FD4 001:198.688 JLINK_WriteReg(R0, 0x11001000)
T5FD4 001:198.731 - 0.043ms returns 0
T5FD4 001:198.773 JLINK_WriteReg(R1, 0x00001000)
T5FD4 001:198.813 - 0.039ms returns 0
T5FD4 001:198.854 JLINK_WriteReg(R2, 0x000000FF)
T5FD4 001:198.893 - 0.039ms returns 0
T5FD4 001:198.934 JLINK_WriteReg(R3, 0x00000000)
T5FD4 001:198.973 - 0.039ms returns 0
T5FD4 001:199.014 JLINK_WriteReg(R4, 0x00000000)
T5FD4 001:199.053 - 0.039ms returns 0
T5FD4 001:199.096 JLINK_WriteReg(R5, 0x00000000)
T5FD4 001:199.136 - 0.039ms returns 0
T5FD4 001:199.177 JLINK_WriteReg(R6, 0x00000000)
T5FD4 001:199.216 - 0.038ms returns 0
T5FD4 001:199.257 JLINK_WriteReg(R7, 0x00000000)
T5FD4 001:199.296 - 0.039ms returns 0
T5FD4 001:199.337 JLINK_WriteReg(R8, 0x00000000)
T5FD4 001:199.376 - 0.039ms returns 0
T5FD4 001:199.418 JLINK_WriteReg(R9, 0x180000CC)
T5FD4 001:199.458 - 0.039ms returns 0
T5FD4 001:199.498 JLINK_WriteReg(R10, 0x00000000)
T5FD4 001:199.538 - 0.039ms returns 0
T5FD4 001:199.580 JLINK_WriteReg(R11, 0x00000000)
T5FD4 001:199.619 - 0.039ms returns 0
T5FD4 001:199.659 JLINK_WriteReg(R12, 0x00000000)
T5FD4 001:199.698 - 0.039ms returns 0
T5FD4 001:199.748 JLINK_WriteReg(R13 (SP), 0x18001018)
T5FD4 001:199.791 - 0.042ms returns 0
T5FD4 001:199.837 JLINK_WriteReg(R14, 0x18000019)
T5FD4 001:199.879 - 0.041ms returns 0
T5FD4 001:199.934 JLINK_WriteReg(R15 (PC), 0x180000A8)
T5FD4 001:199.975 - 0.041ms returns 0
T5FD4 001:200.021 JLINK_WriteReg(XPSR, 0x01000000)
T5FD4 001:200.063 - 0.041ms returns 0
T5FD4 001:200.109 JLINK_WriteReg(MSP, 0x18001018)
T5FD4 001:200.150 - 0.041ms returns 0
T5FD4 001:200.197 JLINK_WriteReg(PSP, 0x18001018)
T5FD4 001:200.237 - 0.041ms returns 0
T5FD4 001:200.284 JLINK_WriteReg(CFBP, 0x00000000)
T5FD4 001:200.325 - 0.040ms returns 0
T5FD4 001:200.373 JLINK_SetBPEx(Addr = 0x18000018, Type = 0xFFFFFFF2)
T5FD4 001:200.416 - 0.044ms returns 0x00000004
T5FD4 001:200.462 JLINK_Go()
T5FD4 001:200.516   CPU_WriteMem(4 bytes @ 0xE0002000)
T5FD4 001:201.456   CPU_ReadMem(4 bytes @ 0xE0001000)
T5FD4 001:205.677 - 5.214ms 
T5FD4 001:205.796 JLINK_IsHalted()
T5FD4 001:209.627 - 3.830ms returns TRUE
T5FD4 001:209.751 JLINK_ReadReg(R15 (PC))
T5FD4 001:209.796 - 0.045ms returns 0x18000018
T5FD4 001:209.840 JLINK_ClrBPEx(BPHandle = 0x00000004)
T5FD4 001:209.881 - 0.041ms returns 0x00
T5FD4 001:209.929 JLINK_ReadReg(R0)
T5FD4 001:209.970 - 0.041ms returns 0x00000001
T5FD4 001:210.018 JLINK_HasError()
T5FD4 001:210.068 JLINK_WriteReg(R0, 0x11001000)
T5FD4 001:210.110 - 0.042ms returns 0
T5FD4 001:210.156 JLINK_WriteReg(R1, 0x00001000)
T5FD4 001:210.196 - 0.040ms returns 0
T5FD4 001:210.242 JLINK_WriteReg(R2, 0x000000FF)
T5FD4 001:210.282 - 0.040ms returns 0
T5FD4 001:210.391 JLINK_WriteReg(R3, 0x00000000)
T5FD4 001:210.433 - 0.041ms returns 0
T5FD4 001:210.479 JLINK_WriteReg(R4, 0x00000000)
T5FD4 001:210.520 - 0.041ms returns 0
T5FD4 001:210.566 JLINK_WriteReg(R5, 0x00000000)
T5FD4 001:210.606 - 0.040ms returns 0
T5FD4 001:210.652 JLINK_WriteReg(R6, 0x00000000)
T5FD4 001:210.693 - 0.040ms returns 0
T5FD4 001:210.740 JLINK_WriteReg(R7, 0x00000000)
T5FD4 001:210.781 - 0.040ms returns 0
T5FD4 001:210.827 JLINK_WriteReg(R8, 0x00000000)
T5FD4 001:210.931 - 0.041ms returns 0
T5FD4 001:210.980 JLINK_WriteReg(R9, 0x180000CC)
T5FD4 001:211.021 - 0.041ms returns 0
T5FD4 001:211.067 JLINK_WriteReg(R10, 0x00000000)
T5FD4 001:211.107 - 0.040ms returns 0
T5FD4 001:211.153 JLINK_WriteReg(R11, 0x00000000)
T5FD4 001:211.194 - 0.041ms returns 0
T5FD4 001:211.240 JLINK_WriteReg(R12, 0x00000000)
T5FD4 001:211.280 - 0.040ms returns 0
T5FD4 001:211.386 JLINK_WriteReg(R13 (SP), 0x18001018)
T5FD4 001:211.427 - 0.041ms returns 0
T5FD4 001:211.537 JLINK_WriteReg(R14, 0x18000019)
T5FD4 001:211.579 - 0.042ms returns 0
T5FD4 001:211.627 JLINK_WriteReg(R15 (PC), 0x18000062)
T5FD4 001:211.670 - 0.043ms returns 0
T5FD4 001:211.716 JLINK_WriteReg(XPSR, 0x01000000)
T5FD4 001:211.758 - 0.041ms returns 0
T5FD4 001:211.855 JLINK_WriteReg(MSP, 0x18001018)
T5FD4 001:211.898 - 0.042ms returns 0
T5FD4 001:211.945 JLINK_WriteReg(PSP, 0x18001018)
T5FD4 001:211.989 - 0.043ms returns 0
T5FD4 001:212.037 JLINK_WriteReg(CFBP, 0x00000000)
T5FD4 001:212.080 - 0.042ms returns 0
T5FD4 001:212.128 JLINK_SetBPEx(Addr = 0x18000018, Type = 0xFFFFFFF2)
T5FD4 001:212.171 - 0.043ms returns 0x00000005
T5FD4 001:212.218 JLINK_Go()
T5FD4 001:212.270   CPU_WriteMem(4 bytes @ 0xE0002000)
T5FD4 001:213.236   CPU_ReadMem(4 bytes @ 0xE0001000)
T5FD4 001:217.536 - 5.316ms 
T5FD4 001:217.673 JLINK_IsHalted()
T5FD4 001:218.317 - 0.643ms returns FALSE
T5FD4 001:218.425 JLINK_HasError()
T5FD4 001:229.325 JLINK_IsHalted()
T5FD4 001:233.411 - 4.087ms returns TRUE
T5FD4 001:233.525 JLINK_ReadReg(R15 (PC))
T5FD4 001:233.569 - 0.043ms returns 0x18000018
T5FD4 001:233.611 JLINK_ClrBPEx(BPHandle = 0x00000005)
T5FD4 001:233.653 - 0.042ms returns 0x00
T5FD4 001:233.695 JLINK_ReadReg(R0)
T5FD4 001:233.735 - 0.039ms returns 0x00000000
T5FD4 001:235.962 JLINK_HasError()
T5FD4 001:236.144 JLINK_WriteReg(R0, 0x11002000)
T5FD4 001:236.189 - 0.044ms returns 0
T5FD4 001:236.230 JLINK_WriteReg(R1, 0x00001000)
T5FD4 001:236.269 - 0.039ms returns 0
T5FD4 001:236.314 JLINK_WriteReg(R2, 0x000000FF)
T5FD4 001:236.353 - 0.039ms returns 0
T5FD4 001:236.394 JLINK_WriteReg(R3, 0x00000000)
T5FD4 001:236.433 - 0.039ms returns 0
T5FD4 001:236.479 JLINK_WriteReg(R4, 0x00000000)
T5FD4 001:236.521 - 0.042ms returns 0
T5FD4 001:236.626 JLINK_WriteReg(R5, 0x00000000)
T5FD4 001:236.668 - 0.042ms returns 0
T5FD4 001:236.709 JLINK_WriteReg(R6, 0x00000000)
T5FD4 001:236.748 - 0.039ms returns 0
T5FD4 001:236.789 JLINK_WriteReg(R7, 0x00000000)
T5FD4 001:236.829 - 0.040ms returns 0
T5FD4 001:236.870 JLINK_WriteReg(R8, 0x00000000)
T5FD4 001:236.909 - 0.039ms returns 0
T5FD4 001:236.949 JLINK_WriteReg(R9, 0x180000CC)
T5FD4 001:236.988 - 0.039ms returns 0
T5FD4 001:237.092 JLINK_WriteReg(R10, 0x00000000)
T5FD4 001:237.132 - 0.040ms returns 0
T5FD4 001:237.172 JLINK_WriteReg(R11, 0x00000000)
T5FD4 001:237.212 - 0.040ms returns 0
T5FD4 001:237.253 JLINK_WriteReg(R12, 0x00000000)
T5FD4 001:237.292 - 0.038ms returns 0
T5FD4 001:237.333 JLINK_WriteReg(R13 (SP), 0x18001018)
T5FD4 001:237.373 - 0.040ms returns 0
T5FD4 001:237.414 JLINK_WriteReg(R14, 0x18000019)
T5FD4 001:237.453 - 0.039ms returns 0
T5FD4 001:237.494 JLINK_WriteReg(R15 (PC), 0x180000A8)
T5FD4 001:237.534 - 0.039ms returns 0
T5FD4 001:237.575 JLINK_WriteReg(XPSR, 0x01000000)
T5FD4 001:237.614 - 0.039ms returns 0
T5FD4 001:237.654 JLINK_WriteReg(MSP, 0x18001018)
T5FD4 001:237.693 - 0.039ms returns 0
T5FD4 001:237.734 JLINK_WriteReg(PSP, 0x18001018)
T5FD4 001:237.773 - 0.039ms returns 0
T5FD4 001:237.813 JLINK_WriteReg(CFBP, 0x00000000)
T5FD4 001:237.852 - 0.039ms returns 0
T5FD4 001:237.894 JLINK_SetBPEx(Addr = 0x18000018, Type = 0xFFFFFFF2)
T5FD4 001:237.936 - 0.042ms returns 0x00000006
T5FD4 001:237.977 JLINK_Go()
T5FD4 001:238.028   CPU_WriteMem(4 bytes @ 0xE0002000)
T5FD4 001:238.922   CPU_ReadMem(4 bytes @ 0xE0001000)
T5FD4 001:243.536 - 5.557ms 
T5FD4 001:243.656 JLINK_IsHalted()
T5FD4 001:247.376 - 3.719ms returns TRUE
T5FD4 001:247.493 JLINK_ReadReg(R15 (PC))
T5FD4 001:247.539 - 0.045ms returns 0x18000018
T5FD4 001:247.588 JLINK_ClrBPEx(BPHandle = 0x00000006)
T5FD4 001:247.633 - 0.045ms returns 0x00
T5FD4 001:247.679 JLINK_ReadReg(R0)
T5FD4 001:247.720 - 0.041ms returns 0x00000001
T5FD4 001:247.768 JLINK_HasError()
T5FD4 001:247.818 JLINK_WriteReg(R0, 0x11002000)
T5FD4 001:247.859 - 0.041ms returns 0
T5FD4 001:247.908 JLINK_WriteReg(R1, 0x00001000)
T5FD4 001:247.948 - 0.041ms returns 0
T5FD4 001:247.995 JLINK_WriteReg(R2, 0x000000FF)
T5FD4 001:248.036 - 0.041ms returns 0
T5FD4 001:248.083 JLINK_WriteReg(R3, 0x00000000)
T5FD4 001:248.125 - 0.042ms returns 0
T5FD4 001:248.171 JLINK_WriteReg(R4, 0x00000000)
T5FD4 001:248.213 - 0.042ms returns 0
T5FD4 001:248.259 JLINK_WriteReg(R5, 0x00000000)
T5FD4 001:248.308 - 0.041ms returns 0
T5FD4 001:248.356 JLINK_WriteReg(R6, 0x00000000)
T5FD4 001:248.397 - 0.041ms returns 0
T5FD4 001:248.443 JLINK_WriteReg(R7, 0x00000000)
T5FD4 001:248.484 - 0.041ms returns 0
T5FD4 001:248.531 JLINK_WriteReg(R8, 0x00000000)
T5FD4 001:248.571 - 0.040ms returns 0
T5FD4 001:248.617 JLINK_WriteReg(R9, 0x180000CC)
T5FD4 001:248.658 - 0.040ms returns 0
T5FD4 001:248.704 JLINK_WriteReg(R10, 0x00000000)
T5FD4 001:248.744 - 0.041ms returns 0
T5FD4 001:248.791 JLINK_WriteReg(R11, 0x00000000)
T5FD4 001:248.832 - 0.041ms returns 0
T5FD4 001:248.877 JLINK_WriteReg(R12, 0x00000000)
T5FD4 001:248.918 - 0.040ms returns 0
T5FD4 001:249.034 JLINK_WriteReg(R13 (SP), 0x18001018)
T5FD4 001:249.078 - 0.045ms returns 0
T5FD4 001:249.120 JLINK_WriteReg(R14, 0x18000019)
T5FD4 001:249.159 - 0.039ms returns 0
T5FD4 001:249.201 JLINK_WriteReg(R15 (PC), 0x18000062)
T5FD4 001:249.240 - 0.039ms returns 0
T5FD4 001:249.282 JLINK_WriteReg(XPSR, 0x01000000)
T5FD4 001:249.329 - 0.047ms returns 0
T5FD4 001:249.372 JLINK_WriteReg(MSP, 0x18001018)
T5FD4 001:249.411 - 0.038ms returns 0
T5FD4 001:249.451 JLINK_WriteReg(PSP, 0x18001018)
T5FD4 001:249.491 - 0.039ms returns 0
T5FD4 001:249.531 JLINK_WriteReg(CFBP, 0x00000000)
T5FD4 001:249.570 - 0.039ms returns 0
T5FD4 001:249.615 JLINK_SetBPEx(Addr = 0x18000018, Type = 0xFFFFFFF2)
T5FD4 001:249.657 - 0.042ms returns 0x00000007
T5FD4 001:249.698 JLINK_Go()
T5FD4 001:249.747   CPU_WriteMem(4 bytes @ 0xE0002000)
T5FD4 001:250.537   CPU_ReadMem(4 bytes @ 0xE0001000)
T5FD4 001:254.868 - 5.168ms 
T5FD4 001:254.988 JLINK_IsHalted()
T5FD4 001:255.927 - 0.937ms returns FALSE
T5FD4 001:256.140 JLINK_HasError()
T5FD4 001:257.858 JLINK_IsHalted()
T5FD4 001:261.873 - 4.014ms returns TRUE
T5FD4 001:261.985 JLINK_ReadReg(R15 (PC))
T5FD4 001:262.168 - 0.181ms returns 0x18000018
T5FD4 001:262.254 JLINK_ClrBPEx(BPHandle = 0x00000007)
T5FD4 001:262.349 - 0.094ms returns 0x00
T5FD4 001:262.431 JLINK_ReadReg(R0)
T5FD4 001:262.667 - 0.235ms returns 0x00000000
T5FD4 001:265.911 JLINK_HasError()
T5FD4 001:266.019 JLINK_WriteReg(R0, 0x1103E000)
T5FD4 001:266.065 - 0.046ms returns 0
T5FD4 001:266.108 JLINK_WriteReg(R1, 0x00001000)
T5FD4 001:266.147 - 0.039ms returns 0
T5FD4 001:266.188 JLINK_WriteReg(R2, 0x000000FF)
T5FD4 001:266.228 - 0.039ms returns 0
T5FD4 001:266.268 JLINK_WriteReg(R3, 0x00000000)
T5FD4 001:266.307 - 0.039ms returns 0
T5FD4 001:266.386 JLINK_WriteReg(R4, 0x00000000)
T5FD4 001:266.427 - 0.041ms returns 0
T5FD4 001:266.468 JLINK_WriteReg(R5, 0x00000000)
T5FD4 001:266.507 - 0.039ms returns 0
T5FD4 001:266.548 JLINK_WriteReg(R6, 0x00000000)
T5FD4 001:266.587 - 0.038ms returns 0
T5FD4 001:266.628 JLINK_WriteReg(R7, 0x00000000)
T5FD4 001:266.667 - 0.039ms returns 0
T5FD4 001:266.707 JLINK_WriteReg(R8, 0x00000000)
T5FD4 001:266.747 - 0.040ms returns 0
T5FD4 001:266.789 JLINK_WriteReg(R9, 0x180000CC)
T5FD4 001:266.828 - 0.039ms returns 0
T5FD4 001:266.869 JLINK_WriteReg(R10, 0x00000000)
T5FD4 001:266.910 - 0.040ms returns 0
T5FD4 001:266.951 JLINK_WriteReg(R11, 0x00000000)
T5FD4 001:266.990 - 0.039ms returns 0
T5FD4 001:267.031 JLINK_WriteReg(R12, 0x00000000)
T5FD4 001:267.070 - 0.039ms returns 0
T5FD4 001:267.111 JLINK_WriteReg(R13 (SP), 0x18001018)
T5FD4 001:267.152 - 0.042ms returns 0
T5FD4 001:267.193 JLINK_WriteReg(R14, 0x18000019)
T5FD4 001:267.232 - 0.039ms returns 0
T5FD4 001:267.273 JLINK_WriteReg(R15 (PC), 0x180000A8)
T5FD4 001:267.312 - 0.039ms returns 0
T5FD4 001:267.368 JLINK_WriteReg(XPSR, 0x01000000)
T5FD4 001:267.407 - 0.040ms returns 0
T5FD4 001:267.449 JLINK_WriteReg(MSP, 0x18001018)
T5FD4 001:267.488 - 0.039ms returns 0
T5FD4 001:267.528 JLINK_WriteReg(PSP, 0x18001018)
T5FD4 001:267.567 - 0.039ms returns 0
T5FD4 001:267.608 JLINK_WriteReg(CFBP, 0x00000000)
T5FD4 001:267.647 - 0.039ms returns 0
T5FD4 001:267.689 JLINK_SetBPEx(Addr = 0x18000018, Type = 0xFFFFFFF2)
T5FD4 001:267.731 - 0.043ms returns 0x00000008
T5FD4 001:267.772 JLINK_Go()
T5FD4 001:267.828   CPU_WriteMem(4 bytes @ 0xE0002000)
T5FD4 001:268.671   CPU_ReadMem(4 bytes @ 0xE0001000)
T5FD4 001:273.364 - 5.589ms 
T5FD4 001:273.530 JLINK_IsHalted()
T5FD4 001:274.280 - 0.749ms returns FALSE
T5FD4 001:274.491 JLINK_HasError()
T5FD4 001:280.402 JLINK_IsHalted()
T5FD4 001:284.399 - 3.996ms returns TRUE
T5FD4 001:284.559 JLINK_ReadReg(R15 (PC))
T5FD4 001:284.609 - 0.050ms returns 0x18000018
T5FD4 001:284.653 JLINK_ClrBPEx(BPHandle = 0x00000008)
T5FD4 001:284.775 - 0.120ms returns 0x00
T5FD4 001:284.905 JLINK_ReadReg(R0)
T5FD4 001:284.951 - 0.045ms returns 0x00000001
T5FD4 001:284.996 JLINK_HasError()
T5FD4 001:285.042 JLINK_WriteReg(R0, 0x1103E000)
T5FD4 001:285.086 - 0.043ms returns 0
T5FD4 001:285.129 JLINK_WriteReg(R1, 0x00001000)
T5FD4 001:285.226 - 0.097ms returns 0
T5FD4 001:285.270 JLINK_WriteReg(R2, 0x000000FF)
T5FD4 001:285.310 - 0.040ms returns 0
T5FD4 001:285.353 JLINK_WriteReg(R3, 0x00000000)
T5FD4 001:285.491 - 0.135ms returns 0
T5FD4 001:285.576 JLINK_WriteReg(R4, 0x00000000)
T5FD4 001:285.650 - 0.074ms returns 0
T5FD4 001:285.785 JLINK_WriteReg(R5, 0x00000000)
T5FD4 001:285.927 - 0.143ms returns 0
T5FD4 001:286.048 JLINK_WriteReg(R6, 0x00000000)
T5FD4 001:286.094 - 0.045ms returns 0
T5FD4 001:286.137 JLINK_WriteReg(R7, 0x00000000)
T5FD4 001:286.178 - 0.041ms returns 0
T5FD4 001:286.221 JLINK_WriteReg(R8, 0x00000000)
T5FD4 001:286.263 - 0.041ms returns 0
T5FD4 001:286.304 JLINK_WriteReg(R9, 0x180000CC)
T5FD4 001:286.407 - 0.102ms returns 0
T5FD4 001:286.546 JLINK_WriteReg(R10, 0x00000000)
T5FD4 001:286.588 - 0.042ms returns 0
T5FD4 001:286.630 JLINK_WriteReg(R11, 0x00000000)
T5FD4 001:286.669 - 0.039ms returns 0
T5FD4 001:286.712 JLINK_WriteReg(R12, 0x00000000)
T5FD4 001:286.753 - 0.040ms returns 0
T5FD4 001:286.794 JLINK_WriteReg(R13 (SP), 0x18001018)
T5FD4 001:286.835 - 0.040ms returns 0
T5FD4 001:286.876 JLINK_WriteReg(R14, 0x18000019)
T5FD4 001:286.917 - 0.041ms returns 0
T5FD4 001:286.960 JLINK_WriteReg(R15 (PC), 0x18000062)
T5FD4 001:287.000 - 0.041ms returns 0
T5FD4 001:287.043 JLINK_WriteReg(XPSR, 0x01000000)
T5FD4 001:287.085 - 0.042ms returns 0
T5FD4 001:287.127 JLINK_WriteReg(MSP, 0x18001018)
T5FD4 001:287.167 - 0.040ms returns 0
T5FD4 001:287.209 JLINK_WriteReg(PSP, 0x18001018)
T5FD4 001:287.249 - 0.039ms returns 0
T5FD4 001:287.291 JLINK_WriteReg(CFBP, 0x00000000)
T5FD4 001:287.332 - 0.040ms returns 0
T5FD4 001:287.377 JLINK_SetBPEx(Addr = 0x18000018, Type = 0xFFFFFFF2)
T5FD4 001:287.428 - 0.050ms returns 0x00000009
T5FD4 001:287.488 JLINK_Go()
T5FD4 001:287.563   CPU_WriteMem(4 bytes @ 0xE0002000)
T5FD4 001:288.519   CPU_ReadMem(4 bytes @ 0xE0001000)
T5FD4 001:293.014 - 5.524ms 
T5FD4 001:293.114 JLINK_IsHalted()
T5FD4 001:293.827 - 0.712ms returns FALSE
T5FD4 001:293.891 JLINK_HasError()
T5FD4 001:295.743 JLINK_IsHalted()
T5FD4 001:296.471 - 0.727ms returns FALSE
T5FD4 001:296.539 JLINK_HasError()
T5FD4 001:297.771 JLINK_IsHalted()
T5FD4 001:301.684 - 3.911ms returns TRUE
T5FD4 001:301.813 JLINK_ReadReg(R15 (PC))
T5FD4 001:301.858 - 0.044ms returns 0x18000018
T5FD4 001:301.905 JLINK_ClrBPEx(BPHandle = 0x00000009)
T5FD4 001:301.948 - 0.042ms returns 0x00
T5FD4 001:301.995 JLINK_ReadReg(R0)
T5FD4 001:302.036 - 0.041ms returns 0x00000000
T5FD4 001:302.905 JLINK_HasError()
T5FD4 001:303.116 JLINK_WriteReg(R0, 0x00000001)
T5FD4 001:303.191 - 0.075ms returns 0
T5FD4 001:303.352 JLINK_WriteReg(R1, 0x00001000)
T5FD4 001:303.408 - 0.056ms returns 0
T5FD4 001:303.452 JLINK_WriteReg(R2, 0x000000FF)
T5FD4 001:303.494 - 0.041ms returns 0
T5FD4 001:303.537 JLINK_WriteReg(R3, 0x00000000)
T5FD4 001:303.576 - 0.039ms returns 0
T5FD4 001:303.617 JLINK_WriteReg(R4, 0x00000000)
T5FD4 001:303.656 - 0.039ms returns 0
T5FD4 001:303.697 JLINK_WriteReg(R5, 0x00000000)
T5FD4 001:303.761 - 0.064ms returns 0
T5FD4 001:303.802 JLINK_WriteReg(R6, 0x00000000)
T5FD4 001:303.841 - 0.039ms returns 0
T5FD4 001:303.881 JLINK_WriteReg(R7, 0x00000000)
T5FD4 001:303.920 - 0.038ms returns 0
T5FD4 001:303.962 JLINK_WriteReg(R8, 0x00000000)
T5FD4 001:304.001 - 0.039ms returns 0
T5FD4 001:304.042 JLINK_WriteReg(R9, 0x180000CC)
T5FD4 001:304.082 - 0.040ms returns 0
T5FD4 001:304.123 JLINK_WriteReg(R10, 0x00000000)
T5FD4 001:304.163 - 0.039ms returns 0
T5FD4 001:304.204 JLINK_WriteReg(R11, 0x00000000)
T5FD4 001:304.261 - 0.056ms returns 0
T5FD4 001:304.304 JLINK_WriteReg(R12, 0x00000000)
T5FD4 001:304.344 - 0.039ms returns 0
T5FD4 001:304.385 JLINK_WriteReg(R13 (SP), 0x18001018)
T5FD4 001:304.424 - 0.040ms returns 0
T5FD4 001:304.465 JLINK_WriteReg(R14, 0x18000019)
T5FD4 001:304.504 - 0.039ms returns 0
T5FD4 001:304.545 JLINK_WriteReg(R15 (PC), 0x1800003C)
T5FD4 001:304.584 - 0.039ms returns 0
T5FD4 001:304.624 JLINK_WriteReg(XPSR, 0x01000000)
T5FD4 001:304.663 - 0.039ms returns 0
T5FD4 001:304.704 JLINK_WriteReg(MSP, 0x18001018)
T5FD4 001:304.742 - 0.038ms returns 0
T5FD4 001:304.782 JLINK_WriteReg(PSP, 0x18001018)
T5FD4 001:304.821 - 0.038ms returns 0
T5FD4 001:304.861 JLINK_WriteReg(CFBP, 0x00000000)
T5FD4 001:304.899 - 0.038ms returns 0
T5FD4 001:304.942 JLINK_SetBPEx(Addr = 0x18000018, Type = 0xFFFFFFF2)
T5FD4 001:304.987 - 0.045ms returns 0x0000000A
T5FD4 001:305.029 JLINK_Go()
T5FD4 001:305.082   CPU_WriteMem(4 bytes @ 0xE0002000)
T5FD4 001:305.906   CPU_ReadMem(4 bytes @ 0xE0001000)
T5FD4 001:310.528 - 5.497ms 
T5FD4 001:310.628 JLINK_IsHalted()
T5FD4 001:314.369 - 3.739ms returns TRUE
T5FD4 001:314.478 JLINK_ReadReg(R15 (PC))
T5FD4 001:314.545 - 0.066ms returns 0x18000018
T5FD4 001:314.596 JLINK_ClrBPEx(BPHandle = 0x0000000A)
T5FD4 001:314.645 - 0.049ms returns 0x00
T5FD4 001:314.687 JLINK_ReadReg(R0)
T5FD4 001:314.726 - 0.039ms returns 0x00000000
T5FD4 001:383.225 JLINK_WriteMem(0x18000018, 0xD8 Bytes, ...)
T5FD4 001:383.293   Data:  00 BE 0A E0 0D 78 2D 06 68 40 08 24 40 00 00 D3 ...
T5FD4 001:383.378   CPU_WriteMem(216 bytes @ 0x18000018)
T5FD4 001:385.691 - 2.466ms returns 0xD8
T5FD4 001:385.857 JLINK_HasError()
T5FD4 001:385.907 JLINK_WriteReg(R0, 0x11000000)
T5FD4 001:385.951 - 0.044ms returns 0
T5FD4 001:386.062 JLINK_WriteReg(R1, 0x00B71B00)
T5FD4 001:386.195 - 0.133ms returns 0
T5FD4 001:386.299 JLINK_WriteReg(R2, 0x00000002)
T5FD4 001:386.342 - 0.043ms returns 0
T5FD4 001:386.385 JLINK_WriteReg(R3, 0x00000000)
T5FD4 001:386.423 - 0.038ms returns 0
T5FD4 001:386.466 JLINK_WriteReg(R4, 0x00000000)
T5FD4 001:386.506 - 0.039ms returns 0
T5FD4 001:386.546 JLINK_WriteReg(R5, 0x00000000)
T5FD4 001:386.584 - 0.038ms returns 0
T5FD4 001:386.625 JLINK_WriteReg(R6, 0x00000000)
T5FD4 001:386.663 - 0.038ms returns 0
T5FD4 001:386.704 JLINK_WriteReg(R7, 0x00000000)
T5FD4 001:386.742 - 0.038ms returns 0
T5FD4 001:386.782 JLINK_WriteReg(R8, 0x00000000)
T5FD4 001:386.821 - 0.038ms returns 0
T5FD4 001:386.861 JLINK_WriteReg(R9, 0x180000CC)
T5FD4 001:386.899 - 0.038ms returns 0
T5FD4 001:386.939 JLINK_WriteReg(R10, 0x00000000)
T5FD4 001:386.978 - 0.038ms returns 0
T5FD4 001:387.018 JLINK_WriteReg(R11, 0x00000000)
T5FD4 001:387.057 - 0.039ms returns 0
T5FD4 001:387.099 JLINK_WriteReg(R12, 0x00000000)
T5FD4 001:387.137 - 0.038ms returns 0
T5FD4 001:387.188 JLINK_WriteReg(R13 (SP), 0x18001018)
T5FD4 001:387.228 - 0.040ms returns 0
T5FD4 001:387.269 JLINK_WriteReg(R14, 0x18000019)
T5FD4 001:387.307 - 0.038ms returns 0
T5FD4 001:387.348 JLINK_WriteReg(R15 (PC), 0x18000038)
T5FD4 001:387.387 - 0.040ms returns 0
T5FD4 001:387.427 JLINK_WriteReg(XPSR, 0x01000000)
T5FD4 001:387.466 - 0.039ms returns 0
T5FD4 001:387.507 JLINK_WriteReg(MSP, 0x18001018)
T5FD4 001:387.545 - 0.038ms returns 0
T5FD4 001:387.585 JLINK_WriteReg(PSP, 0x18001018)
T5FD4 001:387.624 - 0.038ms returns 0
T5FD4 001:387.664 JLINK_WriteReg(CFBP, 0x00000000)
T5FD4 001:387.702 - 0.038ms returns 0
T5FD4 001:387.744 JLINK_SetBPEx(Addr = 0x18000018, Type = 0xFFFFFFF2)
T5FD4 001:387.787 - 0.043ms returns 0x0000000B
T5FD4 001:387.828 JLINK_Go()
T5FD4 001:387.877   CPU_WriteMem(4 bytes @ 0xE0002000)
T5FD4 001:388.711   CPU_ReadMem(4 bytes @ 0xE0001000)
T5FD4 001:392.825 - 4.996ms 
T5FD4 001:392.926 JLINK_IsHalted()
T5FD4 001:396.704 - 3.778ms returns TRUE
T5FD4 001:396.805 JLINK_ReadReg(R15 (PC))
T5FD4 001:396.848 - 0.043ms returns 0x18000018
T5FD4 001:396.890 JLINK_ClrBPEx(BPHandle = 0x0000000B)
T5FD4 001:396.931 - 0.040ms returns 0x00
T5FD4 001:396.974 JLINK_ReadReg(R0)
T5FD4 001:397.013 - 0.039ms returns 0x00000000
T5FD4 001:400.080 JLINK_WriteMem(0x180000F0, 0x80 Bytes, ...)
T5FD4 001:400.184   Data:  40 02 00 18 95 00 00 11 9F 00 00 11 D1 0F 00 11 ...
T5FD4 001:400.269   CPU_WriteMem(128 bytes @ 0x180000F0)
T5FD4 001:401.951 - 1.870ms returns 0x80
T5FD4 001:402.032 JLINK_HasError()
T5FD4 001:402.078 JLINK_WriteReg(R0, 0x11000000)
T5FD4 001:402.120 - 0.041ms returns 0
T5FD4 001:402.170 JLINK_WriteReg(R1, 0x00000080)
T5FD4 001:402.210 - 0.040ms returns 0
T5FD4 001:402.251 JLINK_WriteReg(R2, 0x180000F0)
T5FD4 001:402.289 - 0.038ms returns 0
T5FD4 001:402.330 JLINK_WriteReg(R3, 0x00000000)
T5FD4 001:402.369 - 0.038ms returns 0
T5FD4 001:402.409 JLINK_WriteReg(R4, 0x00000000)
T5FD4 001:402.448 - 0.038ms returns 0
T5FD4 001:402.488 JLINK_WriteReg(R5, 0x00000000)
T5FD4 001:402.527 - 0.038ms returns 0
T5FD4 001:402.567 JLINK_WriteReg(R6, 0x00000000)
T5FD4 001:402.605 - 0.038ms returns 0
T5FD4 001:402.646 JLINK_WriteReg(R7, 0x00000000)
T5FD4 001:402.684 - 0.038ms returns 0
T5FD4 001:402.725 JLINK_WriteReg(R8, 0x00000000)
T5FD4 001:402.764 - 0.038ms returns 0
T5FD4 001:402.804 JLINK_WriteReg(R9, 0x180000CC)
T5FD4 001:402.843 - 0.038ms returns 0
T5FD4 001:402.883 JLINK_WriteReg(R10, 0x00000000)
T5FD4 001:402.929 - 0.045ms returns 0
T5FD4 001:402.970 JLINK_WriteReg(R11, 0x00000000)
T5FD4 001:403.008 - 0.038ms returns 0
T5FD4 001:403.049 JLINK_WriteReg(R12, 0x00000000)
T5FD4 001:403.087 - 0.038ms returns 0
T5FD4 001:403.128 JLINK_WriteReg(R13 (SP), 0x18001018)
T5FD4 001:403.183 - 0.055ms returns 0
T5FD4 001:403.232 JLINK_WriteReg(R14, 0x18000019)
T5FD4 001:403.273 - 0.041ms returns 0
T5FD4 001:403.318 JLINK_WriteReg(R15 (PC), 0x1800006E)
T5FD4 001:403.359 - 0.041ms returns 0
T5FD4 001:403.405 JLINK_WriteReg(XPSR, 0x01000000)
T5FD4 001:403.446 - 0.040ms returns 0
T5FD4 001:403.491 JLINK_WriteReg(MSP, 0x18001018)
T5FD4 001:403.532 - 0.040ms returns 0
T5FD4 001:403.577 JLINK_WriteReg(PSP, 0x18001018)
T5FD4 001:403.618 - 0.041ms returns 0
T5FD4 001:403.664 JLINK_WriteReg(CFBP, 0x00000000)
T5FD4 001:403.705 - 0.041ms returns 0
T5FD4 001:403.751 JLINK_SetBPEx(Addr = 0x18000018, Type = 0xFFFFFFF2)
T5FD4 001:403.795 - 0.044ms returns 0x0000000C
T5FD4 001:403.841 JLINK_Go()
T5FD4 001:403.890   CPU_WriteMem(4 bytes @ 0xE0002000)
T5FD4 001:404.621   CPU_ReadMem(4 bytes @ 0xE0001000)
T5FD4 001:408.757 - 4.914ms 
T5FD4 001:408.854 JLINK_IsHalted()
T5FD4 001:409.554 - 0.699ms returns FALSE
T5FD4 001:409.648 JLINK_HasError()
T5FD4 001:420.342 JLINK_IsHalted()
T5FD4 001:424.508 - 4.164ms returns TRUE
T5FD4 001:424.630 JLINK_ReadReg(R15 (PC))
T5FD4 001:424.674 - 0.043ms returns 0x18000018
T5FD4 001:424.716 JLINK_ClrBPEx(BPHandle = 0x0000000C)
T5FD4 001:424.757 - 0.041ms returns 0x00
T5FD4 001:424.799 JLINK_ReadReg(R0)
T5FD4 001:424.838 - 0.039ms returns 0x00000000
T5FD4 001:425.981 JLINK_WriteMem(0x180000F0, 0x80 Bytes, ...)
T5FD4 001:426.051   Data:  DF F8 0C D0 00 F0 54 FB 00 48 00 47 ED 19 00 11 ...
T5FD4 001:426.127   CPU_WriteMem(128 bytes @ 0x180000F0)
T5FD4 001:427.778 - 1.796ms returns 0x80
T5FD4 001:427.925 JLINK_HasError()
T5FD4 001:428.001 JLINK_WriteReg(R0, 0x11000080)
T5FD4 001:428.154 - 0.152ms returns 0
T5FD4 001:428.203 JLINK_WriteReg(R1, 0x00000080)
T5FD4 001:428.243 - 0.040ms returns 0
T5FD4 001:428.293 JLINK_WriteReg(R2, 0x180000F0)
T5FD4 001:428.333 - 0.040ms returns 0
T5FD4 001:428.373 JLINK_WriteReg(R3, 0x00000000)
T5FD4 001:428.412 - 0.038ms returns 0
T5FD4 001:428.452 JLINK_WriteReg(R4, 0x00000000)
T5FD4 001:428.491 - 0.038ms returns 0
T5FD4 001:428.533 JLINK_WriteReg(R5, 0x00000000)
T5FD4 001:428.572 - 0.038ms returns 0
T5FD4 001:428.612 JLINK_WriteReg(R6, 0x00000000)
T5FD4 001:428.650 - 0.038ms returns 0
T5FD4 001:428.691 JLINK_WriteReg(R7, 0x00000000)
T5FD4 001:428.729 - 0.038ms returns 0
T5FD4 001:428.769 JLINK_WriteReg(R8, 0x00000000)
T5FD4 001:428.809 - 0.040ms returns 0
T5FD4 001:428.849 JLINK_WriteReg(R9, 0x180000CC)
T5FD4 001:428.889 - 0.039ms returns 0
T5FD4 001:428.931 JLINK_WriteReg(R10, 0x00000000)
T5FD4 001:428.970 - 0.038ms returns 0
T5FD4 001:429.010 JLINK_WriteReg(R11, 0x00000000)
T5FD4 001:429.049 - 0.039ms returns 0
T5FD4 001:429.089 JLINK_WriteReg(R12, 0x00000000)
T5FD4 001:429.128 - 0.039ms returns 0
T5FD4 001:429.169 JLINK_WriteReg(R13 (SP), 0x18001018)
T5FD4 001:429.209 - 0.040ms returns 0
T5FD4 001:429.250 JLINK_WriteReg(R14, 0x18000019)
T5FD4 001:429.401 - 0.151ms returns 0
T5FD4 001:429.457 JLINK_WriteReg(R15 (PC), 0x1800006E)
T5FD4 001:429.505 - 0.049ms returns 0
T5FD4 001:429.547 JLINK_WriteReg(XPSR, 0x01000000)
T5FD4 001:429.588 - 0.041ms returns 0
T5FD4 001:429.628 JLINK_WriteReg(MSP, 0x18001018)
T5FD4 001:429.668 - 0.039ms returns 0
T5FD4 001:429.708 JLINK_WriteReg(PSP, 0x18001018)
T5FD4 001:429.747 - 0.038ms returns 0
T5FD4 001:429.787 JLINK_WriteReg(CFBP, 0x00000000)
T5FD4 001:429.827 - 0.039ms returns 0
T5FD4 001:429.966 JLINK_SetBPEx(Addr = 0x18000018, Type = 0xFFFFFFF2)
T5FD4 001:430.078 - 0.113ms returns 0x0000000D
T5FD4 001:430.131 JLINK_Go()
T5FD4 001:430.182   CPU_WriteMem(4 bytes @ 0xE0002000)
T5FD4 001:430.999   CPU_ReadMem(4 bytes @ 0xE0001000)
T5FD4 001:435.603 - 5.471ms 
T5FD4 001:435.726 JLINK_IsHalted()
T5FD4 001:436.424 - 0.698ms returns FALSE
T5FD4 001:436.496 JLINK_HasError()
T5FD4 001:438.570 JLINK_IsHalted()
T5FD4 001:442.445 - 3.874ms returns TRUE
T5FD4 001:442.552 JLINK_ReadReg(R15 (PC))
T5FD4 001:442.596 - 0.044ms returns 0x18000018
T5FD4 001:442.638 JLINK_ClrBPEx(BPHandle = 0x0000000D)
T5FD4 001:442.679 - 0.041ms returns 0x00
T5FD4 001:442.720 JLINK_ReadReg(R0)
T5FD4 001:442.759 - 0.038ms returns 0x00000000
T5FD4 001:444.896 JLINK_WriteMem(0x180000F0, 0x80 Bytes, ...)
T5FD4 001:444.992   Data:  41 F4 00 02 04 B1 52 42 C5 F1 20 06 02 FA 06 F1 ...
T5FD4 001:445.070   CPU_WriteMem(128 bytes @ 0x180000F0)
T5FD4 001:446.689 - 1.792ms returns 0x80
T5FD4 001:446.787 JLINK_HasError()
T5FD4 001:446.832 JLINK_WriteReg(R0, 0x11000100)
T5FD4 001:446.873 - 0.042ms returns 0
T5FD4 001:446.914 JLINK_WriteReg(R1, 0x00000080)
T5FD4 001:446.953 - 0.039ms returns 0
T5FD4 001:446.995 JLINK_WriteReg(R2, 0x180000F0)
T5FD4 001:447.034 - 0.039ms returns 0
T5FD4 001:447.075 JLINK_WriteReg(R3, 0x00000000)
T5FD4 001:447.114 - 0.038ms returns 0
T5FD4 001:447.154 JLINK_WriteReg(R4, 0x00000000)
T5FD4 001:447.192 - 0.038ms returns 0
T5FD4 001:447.233 JLINK_WriteReg(R5, 0x00000000)
T5FD4 001:447.271 - 0.038ms returns 0
T5FD4 001:447.311 JLINK_WriteReg(R6, 0x00000000)
T5FD4 001:447.349 - 0.038ms returns 0
T5FD4 001:447.390 JLINK_WriteReg(R7, 0x00000000)
T5FD4 001:447.428 - 0.038ms returns 0
T5FD4 001:447.469 JLINK_WriteReg(R8, 0x00000000)
T5FD4 001:447.507 - 0.038ms returns 0
T5FD4 001:447.557 JLINK_WriteReg(R9, 0x180000CC)
T5FD4 001:447.600 - 0.042ms returns 0
T5FD4 001:447.646 JLINK_WriteReg(R10, 0x00000000)
T5FD4 001:447.687 - 0.040ms returns 0
T5FD4 001:447.730 JLINK_WriteReg(R11, 0x00000000)
T5FD4 001:447.769 - 0.039ms returns 0
T5FD4 001:447.810 JLINK_WriteReg(R12, 0x00000000)
T5FD4 001:447.849 - 0.039ms returns 0
T5FD4 001:447.894 JLINK_WriteReg(R13 (SP), 0x18001018)
T5FD4 001:447.935 - 0.040ms returns 0
T5FD4 001:447.979 JLINK_WriteReg(R14, 0x18000019)
T5FD4 001:448.179 - 0.198ms returns 0
T5FD4 001:448.229 JLINK_WriteReg(R15 (PC), 0x1800006E)
T5FD4 001:448.272 - 0.043ms returns 0
T5FD4 001:448.313 JLINK_WriteReg(XPSR, 0x01000000)
T5FD4 001:448.352 - 0.039ms returns 0
T5FD4 001:448.393 JLINK_WriteReg(MSP, 0x18001018)
T5FD4 001:448.431 - 0.039ms returns 0
T5FD4 001:448.472 JLINK_WriteReg(PSP, 0x18001018)
T5FD4 001:448.511 - 0.038ms returns 0
T5FD4 001:448.551 JLINK_WriteReg(CFBP, 0x00000000)
T5FD4 001:448.590 - 0.039ms returns 0
T5FD4 001:448.632 JLINK_SetBPEx(Addr = 0x18000018, Type = 0xFFFFFFF2)
T5FD4 001:448.676 - 0.044ms returns 0x0000000E
T5FD4 001:448.716 JLINK_Go()
T5FD4 001:448.766   CPU_WriteMem(4 bytes @ 0xE0002000)
T5FD4 001:449.599   CPU_ReadMem(4 bytes @ 0xE0001000)
T5FD4 001:453.799 - 5.081ms 
T5FD4 001:453.889 JLINK_IsHalted()
T5FD4 001:454.634 - 0.744ms returns FALSE
T5FD4 001:454.697 JLINK_HasError()
T5FD4 001:456.573 JLINK_IsHalted()
T5FD4 001:460.234 - 3.659ms returns TRUE
T5FD4 001:460.338 JLINK_ReadReg(R15 (PC))
T5FD4 001:460.382 - 0.043ms returns 0x18000018
T5FD4 001:460.423 JLINK_ClrBPEx(BPHandle = 0x0000000E)
T5FD4 001:460.464 - 0.040ms returns 0x00
T5FD4 001:460.505 JLINK_ReadReg(R0)
T5FD4 001:460.545 - 0.039ms returns 0x00000000
T5FD4 001:462.855 JLINK_WriteMem(0x180000F0, 0x80 Bytes, ...)
T5FD4 001:462.942   Data:  00 40 A7 E7 80 EA 01 02 10 B5 02 F0 00 43 40 00 ...
T5FD4 001:463.018   CPU_WriteMem(128 bytes @ 0x180000F0)
T5FD4 001:464.649 - 1.794ms returns 0x80
T5FD4 001:464.703 JLINK_HasError()
T5FD4 001:464.747 JLINK_WriteReg(R0, 0x11000180)
T5FD4 001:464.788 - 0.041ms returns 0
T5FD4 001:464.830 JLINK_WriteReg(R1, 0x00000080)
T5FD4 001:464.868 - 0.038ms returns 0
T5FD4 001:464.909 JLINK_WriteReg(R2, 0x180000F0)
T5FD4 001:464.948 - 0.038ms returns 0
T5FD4 001:464.989 JLINK_WriteReg(R3, 0x00000000)
T5FD4 001:465.030 - 0.041ms returns 0
T5FD4 001:465.071 JLINK_WriteReg(R4, 0x00000000)
T5FD4 001:465.113 - 0.042ms returns 0
T5FD4 001:465.154 JLINK_WriteReg(R5, 0x00000000)
T5FD4 001:465.210 - 0.056ms returns 0
T5FD4 001:465.252 JLINK_WriteReg(R6, 0x00000000)
T5FD4 001:465.301 - 0.049ms returns 0
T5FD4 001:465.345 JLINK_WriteReg(R7, 0x00000000)
T5FD4 001:465.385 - 0.039ms returns 0
T5FD4 001:465.426 JLINK_WriteReg(R8, 0x00000000)
T5FD4 001:465.465 - 0.039ms returns 0
T5FD4 001:465.506 JLINK_WriteReg(R9, 0x180000CC)
T5FD4 001:465.545 - 0.039ms returns 0
T5FD4 001:465.586 JLINK_WriteReg(R10, 0x00000000)
T5FD4 001:465.626 - 0.039ms returns 0
T5FD4 001:465.666 JLINK_WriteReg(R11, 0x00000000)
T5FD4 001:465.705 - 0.039ms returns 0
T5FD4 001:465.746 JLINK_WriteReg(R12, 0x00000000)
T5FD4 001:465.786 - 0.040ms returns 0
T5FD4 001:465.826 JLINK_WriteReg(R13 (SP), 0x18001018)
T5FD4 001:465.866 - 0.040ms returns 0
T5FD4 001:465.907 JLINK_WriteReg(R14, 0x18000019)
T5FD4 001:465.946 - 0.038ms returns 0
T5FD4 001:465.987 JLINK_WriteReg(R15 (PC), 0x1800006E)
T5FD4 001:466.026 - 0.039ms returns 0
T5FD4 001:466.068 JLINK_WriteReg(XPSR, 0x01000000)
T5FD4 001:466.107 - 0.039ms returns 0
T5FD4 001:466.148 JLINK_WriteReg(MSP, 0x18001018)
T5FD4 001:466.197 - 0.049ms returns 0
T5FD4 001:466.238 JLINK_WriteReg(PSP, 0x18001018)
T5FD4 001:466.277 - 0.039ms returns 0
T5FD4 001:466.319 JLINK_WriteReg(CFBP, 0x00000000)
T5FD4 001:466.358 - 0.039ms returns 0
T5FD4 001:466.400 JLINK_SetBPEx(Addr = 0x18000018, Type = 0xFFFFFFF2)
T5FD4 001:466.442 - 0.042ms returns 0x0000000F
T5FD4 001:466.483 JLINK_Go()
T5FD4 001:466.529   CPU_WriteMem(4 bytes @ 0xE0002000)
T5FD4 001:467.314   CPU_ReadMem(4 bytes @ 0xE0001000)
T5FD4 001:471.490 - 5.006ms 
T5FD4 001:471.594 JLINK_IsHalted()
T5FD4 001:472.340 - 0.745ms returns FALSE
T5FD4 001:472.403 JLINK_HasError()
T5FD4 001:474.251 JLINK_IsHalted()
T5FD4 001:478.119 - 3.867ms returns TRUE
T5FD4 001:478.205 JLINK_ReadReg(R15 (PC))
T5FD4 001:478.249 - 0.044ms returns 0x18000018
T5FD4 001:478.291 JLINK_ClrBPEx(BPHandle = 0x0000000F)
T5FD4 001:478.332 - 0.041ms returns 0x00
